# RS485比例调节阀 MODBUS\-RTU 通讯协议手册

## 1\. 概述

本文档规范了**RS485比例调节阀**的通讯协议，设备支持标准串行链路 **Modbus\-RTU** 通讯模式，定义了通讯参数、数据帧格式、支持的功能码及实操应用案例，可用于设备通讯调试、上位机开发、设备参数配置与位置控制等场景。

Overview: This document describes the Modbus\-RTU communication protocol of RS485 proportional control valve, which supports standard serial link Modbus\-RTU communication mode\.

## 2\. 基础通讯参数

设备默认串口通讯参数如下，所有通讯交互需匹配该参数配置，否则通讯失效：

- **波特率**：9600bps

- **校验方式**：无校验

- **数据位**：8位

- **停止位**：1位

拓展：设备支持波特率修改，可选档位：1200、2400、4800、9600、19200、38400、57600、115200（十进制转十六进制配置）。

## 3\. RTU数据帧通用格式

串行链路Modbus\-RTU数据帧由4个部分组成，整体帧结构固定，数据段内容随功能码变化。

|帧组成部分|字节长度|说明|
|---|---|---|
|从站地址（Address）|1字节|设备通讯地址，范围0\~254，0为默认地址，255为广播地址|
|功能码（Function Code）|1字节|定义读写操作类型|
|数据段（Data）|0\~252字节|随具体命令、读写寄存器地址、数量变化|
|CRC16校验|2字节|校验规则：低8位在前，高8位在后|

## 4\. 支持功能码及报文格式

本设备支持3种标准Modbus功能码，分别为**0x03读寄存器**、**0x10批量写寄存器**、**0x06单寄存器写**，详细报文格式如下。

### 4\.1 读寄存器 0x03

**功能说明**：读取设备寄存器数据，可用于读取阀门位置反馈、设备地址等参数。

#### 4\.1\.1 请求报文格式

|字段定义|从站地址|功能码|起始地址|寄存器个数|CRC16校验|
|---|---|---|---|---|---|
|数据示例|ADDR|0x03|0x00 0x03|0x00 0x01|CRC16|
|字节长度|1|1|2|2|2|

#### 4\.1\.2 响应报文格式

|字段定义|从站地址|功能码|数据字节数|寄存器数据|CRC16校验|
|---|---|---|---|---|---|
|数据示例|ADDR|0x03|0x02|Data|CRC16|
|字节长度|1|1|1|可变|2|

### 4\.2 批量写寄存器 0x10

**功能说明**：批量写入寄存器数据，主要用于设置阀门开度、修改设备参数等操作。

#### 4\.2\.1 请求报文格式

|字段定义|从站地址|功能码|起始地址|寄存器个数|数据字节数|写入数据|CRC16校验|
|---|---|---|---|---|---|---|---|
|数据示例|ADDR|0x10|0x00 0x01|0x00 0x01|0x02|Data|CRC16|
|字节长度|1|1|2|2|1|2|2|

#### 4\.2\.2 响应报文格式

|字段定义|从站地址|功能码|起始地址|寄存器个数|CRC16校验|
|---|---|---|---|---|---|
|数据示例|ADDR|0x10|0x00 0x01|0x02|CRC16|
|字节长度|1|1|2|1|2|

### 4\.3 单寄存器写 0x06

**功能说明**：单个寄存器数据写入，多用于快速设置阀门位置，指令简洁、响应速度快。

#### 4\.3\.1 请求报文格式

|字段定义|从站地址|功能码|起始地址|写入数据|CRC16校验|
|---|---|---|---|---|---|
|数据示例|ADDR|0x06|0x00 0x01|Data|CRC16|
|字节长度|1|1|2|2|2|

#### 4\.3\.2 响应报文格式

正常响应报文与请求报文**完全一致**，代表写入操作成功。

|字段定义|从站地址|功能码|起始地址|写入数据|CRC16校验|
|---|---|---|---|---|---|
|数据示例|ADDR|0x06|0x00 0x01|Data|CRC16|
|字节长度|1|1|2|2|2|

## 5\. 功能实操案例

### 5\.1 读取阀门位置反馈（0x03）

- **发送指令**：01 03 00 03 00 01 74 0A

- **返回指令**：01 03 02 23 28 A1 6A

- **有效数据**：23 28（十六进制）

- **数据解析**：十六进制0x2328转换十进制为9000；设备角度变比为100，实际阀门角度=9000/100=**90\.00度**

### 5\.2 设备参数配置

#### 5\.2\.1 修改从站地址

- **写地址指令（设置地址01）**：FF 20 00 20 00 01 02 00 01 2B 80

- **返回指令**：01 20 00 01 02 92 51

- **读地址验证指令**：FF 02 00 02 00 01 0D D4

- **返回指令**：01 02 02 00 01 78 78（验证当前地址为01）

#### 5\.2\.2 修改波特率

- **配置指令**：FF 30 00 30 00 01 04 00 01 C2 00 C6 A9

- **可选波特率**：1200、2400、4800、9600、19200、38400、57600、115200（十进制转十六进制配置）

### 5\.3 0x10批量写寄存器\-位置设置

- **设置0度**：发送：01 10 00 01 00 01 02 00 00 A7 81 \| 返回：01 10 00 01 02 9D 51

- **设置25度**：发送：01 10 00 01 00 01 02 09 C4 A0 42 \| 返回：01 10 00 01 02 9D 51

- **设置50度**：发送：01 10 00 01 00 01 02 13 88 AA D7 \| 返回：01 10 00 01 02 9D 51

- **设置70度**：发送：01 10 00 01 00 01 02 1B 58 AC 8B \| 返回：01 10 00 01 02 9D 51

- **设置90度**：发送：01 10 00 01 00 01 02 23 28 BE AF \| 返回：01 10 00 01 02 9D 51

### 5\.4 0x06单寄存器写\-位置设置

- **设置0度**：发送/返回：01 06 00 01 00 00 D8 0A

- **设置25度**：发送/返回：01 06 00 01 09 C4 DF C9

- **设置50度**：发送/返回：01 0600 01 13 88 D5 5C

- **设置70度**：发送/返回：01 06 00 01 1B 58 D3 00

- **设置90度**：发送/返回：01 06 00 01 23 28 C1 24

## 6\. 补充说明

- 地址规则：0为设备默认地址，255为全局广播地址，可对总线下所有设备统一下发指令；

- 角度换算规则：设备反馈数值÷100=实际阀门角度（单位：度）；

- CRC16校验固定规则：低8位在前、高8位在后，需严格遵循校验规则；

- 0x06、0x10指令均可实现阀门位置设置，0x06适用于单参数快速配置，0x10适用于多参数批量配置。

> （注：文档部分内容可能由 AI 生成）
